T42C8 3898:439.340   SEGGER J-Link V6.88a Log File
T42C8 3898:439.442   DLL Compiled: Nov 18 2020 15:09:23
T42C8 3898:439.454   Logging started @ 2021-04-05 23:58
T42C8 3898:439.465 - 40422.421ms
T42C8 3898:439.482 JLINK_SetWarnOutHandler(...)
T42C8 3898:439.493 - 0.016ms
T42C8 3898:439.507 JLINK_OpenEx(...)
T42C8 3898:441.315   Firmware: J-Link OB-SAM3U128-V2-NordicSemi compiled Feb  2 2021 16:47:20
T42C8 3898:443.813   Hardware: V1.00
T42C8 3898:443.842   S/N: 682621629
T42C8 3898:443.894   OEM: SEGGER
T42C8 3898:443.945   Feature(s): RDI, FlashBP, FlashDL, JFlash, GDB
T42C8 3898:445.441   TELNET listener socket opened on port 19021
T42C8 3898:450.756   WEBSRV Starting webserver
T42C8 3898:451.041   WEBSRV Webserver running on local port 19080
T42C8 3898:451.095 - 11.594ms returns "O.K."
T42C8 3898:451.620 JLINK_GetEmuCaps()
T42C8 3898:451.658 - 0.081ms returns 0xB8EA5A33
T42C8 3898:451.732 JLINK_TIF_GetAvailable(...)
T42C8 3898:451.985 - 0.282ms
T42C8 3898:452.029 JLINK_SetErrorOutHandler(...)
T42C8 3898:452.041 - 0.017ms
T42C8 3898:452.061 JLINK_ExecCommand("ProjectFile = "C:\Users\Daniel\Documents\nRF5_SDK_SMARTMASK\examples\ble_peripheral\Senior Design Proj\pca10040\s132\arm5_no_packs\JLinkSettings.ini"", ...). 
T42C8 3898:453.000 - 0.948ms returns 0x00
T42C8 3898:458.374 JLINK_ExecCommand("Device = nRF52832_xxAA", ...). 
T42C8 3898:471.855   Device "NRF52832_XXAA" selected.
T42C8 3898:472.253 - 13.823ms returns 0x00
T42C8 3898:472.294 JLINK_GetHardwareVersion()
T42C8 3898:472.307 - 0.018ms returns 10000
T42C8 3898:472.323 JLINK_GetDLLVersion()
T42C8 3898:472.335 - 0.017ms returns 68801
T42C8 3898:472.350 JLINK_GetOEMString(...)
T42C8 3898:472.367 JLINK_GetFirmwareString(...)
T42C8 3898:472.378 - 0.017ms
T42C8 3898:478.597 JLINK_GetDLLVersion()
T42C8 3898:478.623 - 0.031ms returns 68801
T42C8 3898:478.641 JLINK_GetCompileDateTime()
T42C8 3898:478.652 - 0.016ms
T42C8 3898:480.685 JLINK_GetFirmwareString(...)
T42C8 3898:480.714 - 0.034ms
T42C8 3898:483.334 JLINK_GetHardwareVersion()
T42C8 3898:483.359 - 0.030ms returns 10000
T42C8 3898:485.253 JLINK_GetSN()
T42C8 3898:485.273 - 0.025ms returns 682621629
T42C8 3898:487.161 JLINK_GetOEMString(...)
T42C8 3898:491.271 JLINK_TIF_Select(JLINKARM_TIF_SWD)
T42C8 3898:492.507 - 1.248ms returns 0x00
T42C8 3898:492.535 JLINK_HasError()
T42C8 3898:492.555 JLINK_SetSpeed(5000)
T42C8 3898:492.755 - 0.212ms
T42C8 3898:492.783 JLINK_GetId()
T42C8 3898:495.193   InitTarget() start
T42C8 3898:495.218    J-Link Script File: Executing InitTarget()
T42C8 3898:501.627   InitTarget() end
T42C8 3898:505.891   Found SW-DP with ID 0x2BA01477
T42C8 3898:510.935   DPIDR: 0x2BA01477
T42C8 3898:513.034   Scanning AP map to find all available APs
T42C8 3898:516.768   AP[2]: Stopped AP scan as end of AP map has been reached
T42C8 3898:518.688   AP[0]: AHB-AP (IDR: 0x24770011)
T42C8 3898:520.641   AP[1]: JTAG-AP (IDR: 0x02880000)
T42C8 3898:522.771   Iterating through AP map to find AHB-AP to use
T42C8 3898:526.246   AP[0]: Core found
T42C8 3898:528.105   AP[0]: AHB-AP ROM base: 0xE00FF000
T42C8 3898:531.318   CPUID register: 0x410FC241. Implementer code: 0x41 (ARM)
T42C8 3898:533.668   Found Cortex-M4 r0p1, Little endian.
T42C8 3898:635.065   -- Max. mem block: 0x00004720
T42C8 3898:635.121   CPU_ReadMem(4 bytes @ 0xE000EDF0)
T42C8 3898:635.988   CPU_WriteMem(4 bytes @ 0xE000EDF0)
T42C8 3898:636.734   CPU_ReadMem(4 bytes @ 0xE0002000)
T42C8 3898:640.358   FPUnit: 6 code (BP) slots and 2 literal slots
T42C8 3898:640.398   CPU_ReadMem(4 bytes @ 0xE000EDFC)
T42C8 3898:641.243   CPU_WriteMem(4 bytes @ 0xE000EDFC)
T42C8 3898:642.118   CPU_ReadMem(4 bytes @ 0xE0001000)
T42C8 3898:642.787   CPU_WriteMem(4 bytes @ 0xE0001000)
T42C8 3898:643.538   CPU_ReadMem(4 bytes @ 0xE000ED88)
T42C8 3898:644.302   CPU_WriteMem(4 bytes @ 0xE000ED88)
T42C8 3898:645.162   CPU_ReadMem(4 bytes @ 0xE000ED88)
T42C8 3898:645.947   CPU_WriteMem(4 bytes @ 0xE000ED88)
T42C8 3898:649.254   CoreSight components:
T42C8 3898:651.384   ROMTbl[0] @ E00FF000
T42C8 3898:651.412   CPU_ReadMem(64 bytes @ 0xE00FF000)
T42C8 3898:652.928   CPU_ReadMem(32 bytes @ 0xE000EFE0)
T42C8 3898:655.854   ROMTbl[0][0]: E000E000, CID: B105E00D, PID: 000BB00C SCS-M7
T42C8 3898:655.880   CPU_ReadMem(32 bytes @ 0xE0001FE0)
T42C8 3898:659.043   ROMTbl[0][1]: E0001000, CID: B105E00D, PID: 003BB002 DWT
T42C8 3898:659.071   CPU_ReadMem(32 bytes @ 0xE0002FE0)
T42C8 3898:665.436   ROMTbl[0][2]: E0002000, CID: B105E00D, PID: 002BB003 FPB
T42C8 3898:665.479   CPU_ReadMem(32 bytes @ 0xE0000FE0)
T42C8 3898:668.856   ROMTbl[0][3]: E0000000, CID: B105E00D, PID: 003BB001 ITM
T42C8 3898:668.886   CPU_ReadMem(32 bytes @ 0xE0040FE0)
T42C8 3898:672.168   ROMTbl[0][4]: E0040000, CID: B105900D, PID: 000BB9A1 TPIU
T42C8 3898:672.197   CPU_ReadMem(32 bytes @ 0xE0041FE0)
T42C8 3898:675.172   ROMTbl[0][5]: E0041000, CID: B105900D, PID: 000BB925 ETM
T42C8 3898:675.634 - 182.878ms returns 0x2BA01477
T42C8 3898:675.680 JLINK_GetDLLVersion()
T42C8 3898:675.691 - 0.016ms returns 68801
T42C8 3898:675.710 JLINK_CORE_GetFound()
T42C8 3898:675.722 - 0.017ms returns 0xE0000FF
T42C8 3898:675.741 JLINK_GetDebugInfo(0x100 = JLINKARM_ROM_TABLE_ADDR_INDEX)
T42C8 3898:675.753   Value=0xE00FF000
T42C8 3898:675.769 - 0.033ms returns 0
T42C8 3898:677.977 JLINK_GetDebugInfo(0x100 = JLINKARM_ROM_TABLE_ADDR_INDEX)
T42C8 3898:678.059   Value=0xE00FF000
T42C8 3898:678.075 - 0.104ms returns 0
T42C8 3898:678.091 JLINK_GetDebugInfo(0x101 = JLINKARM_DEBUG_INFO_ETM_ADDR_INDEX)
T42C8 3898:678.121   Value=0xE0041000
T42C8 3898:678.137 - 0.050ms returns 0
T42C8 3898:678.154 JLINK_ReadMemEx(0xE0041FD0, 0x20 Bytes, Flags = 0x02000004)
T42C8 3898:678.173   CPU_ReadMem(32 bytes @ 0xE0041FD0)
T42C8 3898:679.273   Data:  04 00 00 00 00 00 00 00 00 00 00 00 00 00 00 00 ...
T42C8 3898:679.311 - 1.162ms returns 32 (0x20)
T42C8 3898:679.328 JLINK_GetDebugInfo(0x102 = JLINKARM_DEBUG_INFO_MTB_ADDR_INDEX)
T42C8 3898:679.339   Value=0x00000000
T42C8 3898:679.354 - 0.031ms returns 0
T42C8 3898:679.368 JLINK_GetDebugInfo(0x103 = JLINKARM_DEBUG_INFO_TPIU_ADDR_INDEX)
T42C8 3898:679.379   Value=0xE0040000
T42C8 3898:679.393 - 0.030ms returns 0
T42C8 3898:679.407 JLINK_GetDebugInfo(0x104 = JLINKARM_DEBUG_INFO_ITM_ADDR_INDEX)
T42C8 3898:679.417   Value=0xE0000000
T42C8 3898:679.431 - 0.030ms returns 0
T42C8 3898:679.445 JLINK_GetDebugInfo(0x105 = JLINKARM_DEBUG_INFO_DWT_ADDR_INDEX)
T42C8 3898:679.455   Value=0xE0001000
T42C8 3898:679.470 - 0.029ms returns 0
T42C8 3898:679.483 JLINK_GetDebugInfo(0x106 = JLINKARM_DEBUG_INFO_FPB_ADDR_INDEX)
T42C8 3898:679.493   Value=0xE0002000
T42C8 3898:679.508 - 0.030ms returns 0
T42C8 3898:679.521 JLINK_GetDebugInfo(0x107 = JLINKARM_DEBUG_INFO_NVIC_ADDR_INDEX)
T42C8 3898:679.531   Value=0xE000E000
T42C8 3898:679.546 - 0.029ms returns 0
T42C8 3898:679.559 JLINK_GetDebugInfo(0x10C = JLINKARM_DEBUG_INFO_DBG_ADDR_INDEX)
T42C8 3898:679.569   Value=0xE000EDF0
T42C8 3898:679.584 - 0.029ms returns 0
T42C8 3898:679.598 JLINK_GetDebugInfo(0x01 = Unknown)
T42C8 3898:679.608   Value=0x00000001
T42C8 3898:679.623 - 0.029ms returns 0
T42C8 3898:679.638 JLINK_ReadMemU32(0xE000ED00, 0x1 Items)
T42C8 3898:679.652   CPU_ReadMem(4 bytes @ 0xE000ED00)
T42C8 3898:680.423   Data:  41 C2 0F 41
T42C8 3898:680.463   Debug reg: CPUID
T42C8 3898:680.479 - 0.847ms returns 1 (0x1)
T42C8 3898:680.497 JLINK_GetDebugInfo(0x10F = JLINKARM_DEBUG_INFO_HAS_CORTEX_M_SECURITY_EXT_INDEX)
T42C8 3898:680.509   Value=0x00000000
T42C8 3898:680.525 - 0.033ms returns 0
T42C8 3898:680.541 JLINK_HasError()
T42C8 3898:680.558 JLINK_SetResetType(JLINKARM_CM3_RESET_TYPE_NORMAL)
T42C8 3898:680.569 - 0.017ms returns JLINKARM_CM3_RESET_TYPE_NORMAL
T42C8 3898:680.585 JLINK_Reset()
T42C8 3898:680.601   CPU is running
T42C8 3898:680.642   CPU_WriteMem(4 bytes @ 0xE000EDF0)
T42C8 3898:681.468   CPU is running
T42C8 3898:681.516   CPU_WriteMem(4 bytes @ 0xE000EDFC)
T42C8 3898:684.795   Reset: Halt core after reset via DEMCR.VC_CORERESET.
T42C8 3898:687.863   Reset: Reset device via AIRCR.SYSRESETREQ.
T42C8 3898:687.891   CPU is running
T42C8 3898:687.915   CPU_WriteMem(4 bytes @ 0xE000ED0C)
T42C8 3898:740.693   CPU_ReadMem(4 bytes @ 0xE000EDF0)
T42C8 3898:741.627   CPU_ReadMem(4 bytes @ 0xE000EDF0)
T42C8 3898:742.340   CPU is running
T42C8 3898:742.365   CPU_WriteMem(4 bytes @ 0xE000EDF0)
T42C8 3898:743.082   CPU is running
T42C8 3898:743.122   CPU_WriteMem(4 bytes @ 0xE000EDFC)
T42C8 3898:748.941   CPU_ReadMem(4 bytes @ 0xE000EDF0)
T42C8 3898:756.517   CPU_WriteMem(4 bytes @ 0xE0002000)
T42C8 3898:757.316   CPU_ReadMem(4 bytes @ 0xE000EDFC)
T42C8 3898:757.982   CPU_ReadMem(4 bytes @ 0xE0001000)
T42C8 3898:758.858 - 78.302ms
T42C8 3898:758.999 JLINK_Halt()
T42C8 3898:759.011 - 0.018ms returns 0x00
T42C8 3898:759.028 JLINK_ReadMemU32(0xE000EDF0, 0x1 Items)
T42C8 3898:759.046   CPU_ReadMem(4 bytes @ 0xE000EDF0)
T42C8 3898:759.877   Data:  03 00 03 00
T42C8 3898:759.899   Debug reg: DHCSR
T42C8 3898:759.914 - 0.890ms returns 1 (0x1)
T42C8 3898:759.951 JLINK_WriteU32_64(0xE000EDF0, 0xA05F0003)
T42C8 3898:759.980   Debug reg: DHCSR
T42C8 3898:760.570   CPU_WriteMem(4 bytes @ 0xE000EDF0)
T42C8 3898:761.333 - 1.409ms returns 0 (0x00000000)
T42C8 3898:761.395 JLINK_WriteU32_64(0xE000EDFC, 0x01000000)
T42C8 3898:761.408   Debug reg: DEMCR
T42C8 3898:761.429   CPU_WriteMem(4 bytes @ 0xE000EDFC)
T42C8 3898:762.134 - 0.765ms returns 0 (0x00000000)
T42C8 3898:770.736 JLINK_GetHWStatus(...)
T42C8 3898:771.076 - 0.376ms returns 0
T42C8 3898:777.127 JLINK_GetNumBPUnits(Type = 0xFFFFFF00)
T42C8 3898:777.154 - 0.033ms returns 0x06
T42C8 3898:777.170 JLINK_GetNumBPUnits(Type = 0xF0)
T42C8 3898:777.181 - 0.016ms returns 0x2000
T42C8 3898:777.196 JLINK_GetNumWPUnits()
T42C8 3898:777.207 - 0.016ms returns 4
T42C8 3898:783.540 JLINK_GetSpeed()
T42C8 3898:783.572 - 0.037ms returns 1000
T42C8 3898:787.451 JLINK_ReadMemU32(0xE000E004, 0x1 Items)
T42C8 3898:787.482   CPU_ReadMem(4 bytes @ 0xE000E004)
T42C8 3898:788.287   Data:  01 00 00 00
T42C8 3898:788.315 - 0.870ms returns 1 (0x1)
T42C8 3898:788.335 JLINK_ReadMemU32(0xE000E004, 0x1 Items)
T42C8 3898:788.352   CPU_ReadMem(4 bytes @ 0xE000E004)
T42C8 3898:789.117   Data:  01 00 00 00
T42C8 3898:789.140 - 0.811ms returns 1 (0x1)
T42C8 3898:789.162 JLINK_WriteMemEx(0xE0001000, 0x0000001C Bytes, Flags = 0x02000004)
T42C8 3898:789.174   Data:  01 00 00 00 00 00 00 00 00 00 00 00 00 00 00 00 ...
T42C8 3898:789.198   CPU_WriteMem(28 bytes @ 0xE0001000)
T42C8 3898:790.309 - 1.158ms returns 0x1C
T42C8 3898:790.336 JLINK_Halt()
T42C8 3898:790.348 - 0.017ms returns 0x00
T42C8 3898:790.364 JLINK_IsHalted()
T42C8 3898:790.375 - 0.016ms returns TRUE
T42C8 3898:794.364 JLINK_WriteMem(0x20000000, 0x228 Bytes, ...)
T42C8 3898:794.382   Data:  00 BE 0A E0 0D 78 2D 06 68 40 08 24 40 00 00 D3 ...
T42C8 3898:794.988   CPU_WriteMem(552 bytes @ 0x20000000)
T42C8 3898:802.914 - 8.571ms returns 0x228
T42C8 3898:802.985 JLINK_HasError()
T42C8 3898:803.007 JLINK_WriteReg(R0, 0x00000000)
T42C8 3898:803.022 - 0.020ms returns 0
T42C8 3898:803.036 JLINK_WriteReg(R1, 0x03D09000)
T42C8 3898:803.047 - 0.016ms returns 0
T42C8 3898:803.062 JLINK_WriteReg(R2, 0x00000001)
T42C8 3898:803.073 - 0.016ms returns 0
T42C8 3898:803.087 JLINK_WriteReg(R3, 0x00000000)
T42C8 3898:803.097 - 0.016ms returns 0
T42C8 3898:803.114 JLINK_WriteReg(R4, 0x00000000)
T42C8 3898:803.163 - 0.054ms returns 0
T42C8 3898:803.178 JLINK_WriteReg(R5, 0x00000000)
T42C8 3898:803.190 - 0.016ms returns 0
T42C8 3898:803.206 JLINK_WriteReg(R6, 0x00000000)
T42C8 3898:803.217 - 0.016ms returns 0
T42C8 3898:803.231 JLINK_WriteReg(R7, 0x00000000)
T42C8 3898:803.242 - 0.016ms returns 0
T42C8 3898:803.256 JLINK_WriteReg(R8, 0x00000000)
T42C8 3898:803.268 - 0.016ms returns 0
T42C8 3898:803.282 JLINK_WriteReg(R9, 0x20000224)
T42C8 3898:803.293 - 0.016ms returns 0
T42C8 3898:803.307 JLINK_WriteReg(R10, 0x00000000)
T42C8 3898:803.318 - 0.016ms returns 0
T42C8 3898:803.332 JLINK_WriteReg(R11, 0x00000000)
T42C8 3898:803.343 - 0.016ms returns 0
T42C8 3898:803.357 JLINK_WriteReg(R12, 0x00000000)
T42C8 3898:803.367 - 0.016ms returns 0
T42C8 3898:803.385 JLINK_WriteReg(R13 (SP), 0x20002000)
T42C8 3898:803.399 - 0.019ms returns 0
T42C8 3898:803.413 JLINK_WriteReg(R14, 0x20000001)
T42C8 3898:803.424 - 0.016ms returns 0
T42C8 3898:803.438 JLINK_WriteReg(R15 (PC), 0x2000003C)
T42C8 3898:803.449 - 0.016ms returns 0
T42C8 3898:803.463 JLINK_WriteReg(XPSR, 0x01000000)
T42C8 3898:803.474 - 0.016ms returns 0
T42C8 3898:803.488 JLINK_WriteReg(MSP, 0x20002000)
T42C8 3898:803.499 - 0.016ms returns 0
T42C8 3898:803.513 JLINK_WriteReg(PSP, 0x20002000)
T42C8 3898:803.524 - 0.016ms returns 0
T42C8 3898:803.538 JLINK_WriteReg(CFBP, 0x00000000)
T42C8 3898:803.549 - 0.016ms returns 0
T42C8 3898:803.564 JLINK_SetBPEx(Addr = 0x20000000, Type = 0xFFFFFFF2)
T42C8 3898:803.580   CPU_ReadMem(2 bytes @ 0x20000000)
T42C8 3898:804.330 - 0.779ms returns 0x00000001
T42C8 3898:804.358 JLINK_Go()
T42C8 3898:804.373   CPU_WriteMem(2 bytes @ 0x20000000)
T42C8 3898:805.182   CPU_ReadMem(4 bytes @ 0xE0001000)
T42C8 3898:806.013   CPU_WriteMem(4 bytes @ 0xE0002008)
T42C8 3898:806.037   CPU_WriteMem(4 bytes @ 0xE000200C)
T42C8 3898:806.053   CPU_WriteMem(4 bytes @ 0xE0002010)
T42C8 3898:806.071   CPU_WriteMem(4 bytes @ 0xE0002014)
T42C8 3898:806.087   CPU_WriteMem(4 bytes @ 0xE0002018)
T42C8 3898:806.103   CPU_WriteMem(4 bytes @ 0xE000201C)
T42C8 3898:808.829   CPU_WriteMem(4 bytes @ 0xE0001004)
T42C8 3898:815.523 - 11.212ms
T42C8 3898:815.619 JLINK_IsHalted()
T42C8 3898:822.377   CPU_ReadMem(2 bytes @ 0x20000000)
T42C8 3898:823.147 - 7.539ms returns TRUE
T42C8 3898:823.179 JLINK_ReadReg(R15 (PC))
T42C8 3898:823.193 - 0.019ms returns 0x20000000
T42C8 3898:823.211 JLINK_ClrBPEx(BPHandle = 0x00000001)
T42C8 3898:823.222 - 0.017ms returns 0x00
T42C8 3898:823.240 JLINK_ReadReg(R0)
T42C8 3898:823.251 - 0.017ms returns 0x00000000
T42C8 3898:823.708 JLINK_HasError()
T42C8 3898:823.728 JLINK_WriteReg(R0, 0x0001F000)
T42C8 3898:823.740 - 0.018ms returns 0
T42C8 3898:823.755 JLINK_WriteReg(R1, 0x00001000)
T42C8 3898:823.766 - 0.016ms returns 0
T42C8 3898:823.780 JLINK_WriteReg(R2, 0x000000FF)
T42C8 3898:823.791 - 0.016ms returns 0
T42C8 3898:823.805 JLINK_WriteReg(R3, 0x00000000)
T42C8 3898:823.816 - 0.016ms returns 0
T42C8 3898:823.830 JLINK_WriteReg(R4, 0x00000000)
T42C8 3898:823.841 - 0.016ms returns 0
T42C8 3898:823.855 JLINK_WriteReg(R5, 0x00000000)
T42C8 3898:823.866 - 0.016ms returns 0
T42C8 3898:823.880 JLINK_WriteReg(R6, 0x00000000)
T42C8 3898:823.891 - 0.016ms returns 0
T42C8 3898:823.905 JLINK_WriteReg(R7, 0x00000000)
T42C8 3898:823.916 - 0.016ms returns 0
T42C8 3898:823.930 JLINK_WriteReg(R8, 0x00000000)
T42C8 3898:823.941 - 0.016ms returns 0
T42C8 3898:823.955 JLINK_WriteReg(R9, 0x20000224)
T42C8 3898:823.965 - 0.016ms returns 0
T42C8 3898:823.979 JLINK_WriteReg(R10, 0x00000000)
T42C8 3898:823.990 - 0.016ms returns 0
T42C8 3898:824.004 JLINK_WriteReg(R11, 0x00000000)
T42C8 3898:824.015 - 0.016ms returns 0
T42C8 3898:824.029 JLINK_WriteReg(R12, 0x00000000)
T42C8 3898:824.040 - 0.016ms returns 0
T42C8 3898:824.053 JLINK_WriteReg(R13 (SP), 0x20002000)
T42C8 3898:824.065 - 0.016ms returns 0
T42C8 3898:824.079 JLINK_WriteReg(R14, 0x20000001)
T42C8 3898:824.090 - 0.016ms returns 0
T42C8 3898:824.104 JLINK_WriteReg(R15 (PC), 0x20000110)
T42C8 3898:824.115 - 0.016ms returns 0
T42C8 3898:824.129 JLINK_WriteReg(XPSR, 0x01000000)
T42C8 3898:824.139 - 0.016ms returns 0
T42C8 3898:824.154 JLINK_WriteReg(MSP, 0x20002000)
T42C8 3898:824.164 - 0.016ms returns 0
T42C8 3898:824.178 JLINK_WriteReg(PSP, 0x20002000)
T42C8 3898:824.189 - 0.016ms returns 0
T42C8 3898:824.203 JLINK_WriteReg(CFBP, 0x00000000)
T42C8 3898:824.214 - 0.016ms returns 0
T42C8 3898:824.229 JLINK_SetBPEx(Addr = 0x20000000, Type = 0xFFFFFFF2)
T42C8 3898:824.240 - 0.017ms returns 0x00000002
T42C8 3898:824.255 JLINK_Go()
T42C8 3898:824.272   CPU_ReadMem(4 bytes @ 0xE0001000)
T42C8 3898:831.275 - 7.034ms
T42C8 3898:831.303 JLINK_IsHalted()
T42C8 3898:837.834   CPU_ReadMem(2 bytes @ 0x20000000)
T42C8 3898:838.420 - 7.128ms returns TRUE
T42C8 3898:838.445 JLINK_ReadReg(R15 (PC))
T42C8 3898:838.497 - 0.057ms returns 0x20000000
T42C8 3898:838.513 JLINK_ClrBPEx(BPHandle = 0x00000002)
T42C8 3898:838.525 - 0.017ms returns 0x00
T42C8 3898:838.540 JLINK_ReadReg(R0)
T42C8 3898:838.551 - 0.017ms returns 0x00000001
T42C8 3898:838.567 JLINK_HasError()
T42C8 3898:838.583 JLINK_WriteReg(R0, 0x0001F000)
T42C8 3898:838.595 - 0.017ms returns 0
T42C8 3898:838.609 JLINK_WriteReg(R1, 0x00001000)
T42C8 3898:838.621 - 0.017ms returns 0
T42C8 3898:838.635 JLINK_WriteReg(R2, 0x000000FF)
T42C8 3898:838.647 - 0.016ms returns 0
T42C8 3898:838.661 JLINK_WriteReg(R3, 0x00000000)
T42C8 3898:838.672 - 0.016ms returns 0
T42C8 3898:838.687 JLINK_WriteReg(R4, 0x00000000)
T42C8 3898:838.698 - 0.016ms returns 0
T42C8 3898:838.712 JLINK_WriteReg(R5, 0x00000000)
T42C8 3898:838.723 - 0.017ms returns 0
T42C8 3898:838.738 JLINK_WriteReg(R6, 0x00000000)
T42C8 3898:838.750 - 0.017ms returns 0
T42C8 3898:838.764 JLINK_WriteReg(R7, 0x00000000)
T42C8 3898:838.775 - 0.016ms returns 0
T42C8 3898:838.789 JLINK_WriteReg(R8, 0x00000000)
T42C8 3898:838.800 - 0.016ms returns 0
T42C8 3898:838.814 JLINK_WriteReg(R9, 0x20000224)
T42C8 3898:838.826 - 0.016ms returns 0
T42C8 3898:838.840 JLINK_WriteReg(R10, 0x00000000)
T42C8 3898:838.851 - 0.016ms returns 0
T42C8 3898:838.865 JLINK_WriteReg(R11, 0x00000000)
T42C8 3898:838.877 - 0.016ms returns 0
T42C8 3898:838.891 JLINK_WriteReg(R12, 0x00000000)
T42C8 3898:838.902 - 0.016ms returns 0
T42C8 3898:838.916 JLINK_WriteReg(R13 (SP), 0x20002000)
T42C8 3898:838.928 - 0.017ms returns 0
T42C8 3898:838.942 JLINK_WriteReg(R14, 0x20000001)
T42C8 3898:838.953 - 0.044ms returns 0
T42C8 3898:839.016 JLINK_WriteReg(R15 (PC), 0x200000CE)
T42C8 3898:839.046 - 0.036ms returns 0
T42C8 3898:839.061 JLINK_WriteReg(XPSR, 0x01000000)
T42C8 3898:839.073 - 0.017ms returns 0
T42C8 3898:839.088 JLINK_WriteReg(MSP, 0x20002000)
T42C8 3898:839.100 - 0.017ms returns 0
T42C8 3898:839.114 JLINK_WriteReg(PSP, 0x20002000)
T42C8 3898:839.126 - 0.032ms returns 0
T42C8 3898:839.177 JLINK_WriteReg(CFBP, 0x00000000)
T42C8 3898:839.204 - 0.032ms returns 0
T42C8 3898:839.219 JLINK_SetBPEx(Addr = 0x20000000, Type = 0xFFFFFFF2)
T42C8 3898:839.231 - 0.017ms returns 0x00000003
T42C8 3898:839.245 JLINK_Go()
T42C8 3898:839.262   CPU_ReadMem(4 bytes @ 0xE0001000)
T42C8 3898:845.967 - 6.740ms
T42C8 3898:846.000 JLINK_IsHalted()
T42C8 3898:846.681 - 0.693ms returns FALSE
T42C8 3898:846.706 JLINK_HasError()
T42C8 3898:861.945 JLINK_IsHalted()
T42C8 3898:868.299   CPU_ReadMem(2 bytes @ 0x20000000)
T42C8 3898:868.907 - 6.974ms returns TRUE
T42C8 3898:868.935 JLINK_ReadReg(R15 (PC))
T42C8 3898:868.950 - 0.020ms returns 0x20000000
T42C8 3898:868.965 JLINK_ClrBPEx(BPHandle = 0x00000003)
T42C8 3898:868.978 - 0.018ms returns 0x00
T42C8 3898:868.993 JLINK_ReadReg(R0)
T42C8 3898:869.006 - 0.018ms returns 0x00000000
T42C8 3898:869.629 JLINK_HasError()
T42C8 3898:869.649 JLINK_WriteReg(R0, 0x00020000)
T42C8 3898:869.662 - 0.018ms returns 0
T42C8 3898:869.677 JLINK_WriteReg(R1, 0x00001000)
T42C8 3898:869.689 - 0.017ms returns 0
T42C8 3898:869.703 JLINK_WriteReg(R2, 0x000000FF)
T42C8 3898:869.715 - 0.016ms returns 0
T42C8 3898:869.729 JLINK_WriteReg(R3, 0x00000000)
T42C8 3898:869.740 - 0.016ms returns 0
T42C8 3898:869.754 JLINK_WriteReg(R4, 0x00000000)
T42C8 3898:869.766 - 0.016ms returns 0
T42C8 3898:869.780 JLINK_WriteReg(R5, 0x00000000)
T42C8 3898:869.791 - 0.016ms returns 0
T42C8 3898:869.806 JLINK_WriteReg(R6, 0x00000000)
T42C8 3898:869.817 - 0.016ms returns 0
T42C8 3898:869.831 JLINK_WriteReg(R7, 0x00000000)
T42C8 3898:869.842 - 0.016ms returns 0
T42C8 3898:869.857 JLINK_WriteReg(R8, 0x00000000)
T42C8 3898:869.868 - 0.046ms returns 0
T42C8 3898:869.951 JLINK_WriteReg(R9, 0x20000224)
T42C8 3898:869.970 - 0.044ms returns 0
T42C8 3898:870.041 JLINK_WriteReg(R10, 0x00000000)
T42C8 3898:870.057 - 0.023ms returns 0
T42C8 3898:870.076 JLINK_WriteReg(R11, 0x00000000)
T42C8 3898:870.093 - 0.024ms returns 0
T42C8 3898:870.113 JLINK_WriteReg(R12, 0x00000000)
T42C8 3898:870.183 - 0.082ms returns 0
T42C8 3898:870.208 JLINK_WriteReg(R13 (SP), 0x20002000)
T42C8 3898:870.224 - 0.023ms returns 0
T42C8 3898:870.244 JLINK_WriteReg(R14, 0x20000001)
T42C8 3898:870.260 - 0.024ms returns 0
T42C8 3898:870.281 JLINK_WriteReg(R15 (PC), 0x20000110)
T42C8 3898:870.297 - 0.024ms returns 0
T42C8 3898:870.317 JLINK_WriteReg(XPSR, 0x01000000)
T42C8 3898:870.334 - 0.024ms returns 0
T42C8 3898:870.353 JLINK_WriteReg(MSP, 0x20002000)
T42C8 3898:870.368 - 0.022ms returns 0
T42C8 3898:870.387 JLINK_WriteReg(PSP, 0x20002000)
T42C8 3898:870.403 - 0.023ms returns 0
T42C8 3898:870.423 JLINK_WriteReg(CFBP, 0x00000000)
T42C8 3898:870.439 - 0.024ms returns 0
T42C8 3898:870.459 JLINK_SetBPEx(Addr = 0x20000000, Type = 0xFFFFFFF2)
T42C8 3898:870.477 - 0.026ms returns 0x00000004
T42C8 3898:870.498 JLINK_Go()
T42C8 3898:870.523   CPU_ReadMem(4 bytes @ 0xE0001000)
T42C8 3898:877.079 - 6.599ms
T42C8 3898:877.136 JLINK_IsHalted()
T42C8 3898:883.731   CPU_ReadMem(2 bytes @ 0x20000000)
T42C8 3898:884.453 - 7.334ms returns TRUE
T42C8 3898:884.489 JLINK_ReadReg(R15 (PC))
T42C8 3898:884.526 - 0.043ms returns 0x20000000
T42C8 3898:884.545 JLINK_ClrBPEx(BPHandle = 0x00000004)
T42C8 3898:884.595 - 0.056ms returns 0x00
T42C8 3898:884.630 JLINK_ReadReg(R0)
T42C8 3898:884.642 - 0.017ms returns 0x00000001
T42C8 3898:884.661 JLINK_HasError()
T42C8 3898:884.677 JLINK_WriteReg(R0, 0x00020000)
T42C8 3898:884.689 - 0.018ms returns 0
T42C8 3898:884.724 JLINK_WriteReg(R1, 0x00001000)
T42C8 3898:884.754 - 0.035ms returns 0
T42C8 3898:884.788 JLINK_WriteReg(R2, 0x000000FF)
T42C8 3898:884.816 - 0.054ms returns 0
T42C8 3898:884.853 JLINK_WriteReg(R3, 0x00000000)
T42C8 3898:884.866 - 0.018ms returns 0
T42C8 3898:884.883 JLINK_WriteReg(R4, 0x00000000)
T42C8 3898:884.895 - 0.017ms returns 0
T42C8 3898:884.929 JLINK_WriteReg(R5, 0x00000000)
T42C8 3898:884.956 - 0.053ms returns 0
T42C8 3898:884.992 JLINK_WriteReg(R6, 0x00000000)
T42C8 3898:885.024 - 0.057ms returns 0
T42C8 3898:885.081 JLINK_WriteReg(R7, 0x00000000)
T42C8 3898:885.093 - 0.018ms returns 0
T42C8 3898:885.111 JLINK_WriteReg(R8, 0x00000000)
T42C8 3898:885.140 - 0.055ms returns 0
T42C8 3898:885.298 JLINK_WriteReg(R9, 0x20000224)
T42C8 3898:885.320 - 0.027ms returns 0
T42C8 3898:885.336 JLINK_WriteReg(R10, 0x00000000)
T42C8 3898:885.348 - 0.017ms returns 0
T42C8 3898:885.363 JLINK_WriteReg(R11, 0x00000000)
T42C8 3898:885.374 - 0.017ms returns 0
T42C8 3898:885.389 JLINK_WriteReg(R12, 0x00000000)
T42C8 3898:885.400 - 0.016ms returns 0
T42C8 3898:885.415 JLINK_WriteReg(R13 (SP), 0x20002000)
T42C8 3898:885.427 - 0.017ms returns 0
T42C8 3898:885.442 JLINK_WriteReg(R14, 0x20000001)
T42C8 3898:885.454 - 0.017ms returns 0
T42C8 3898:885.469 JLINK_WriteReg(R15 (PC), 0x200000CE)
T42C8 3898:885.480 - 0.017ms returns 0
T42C8 3898:885.496 JLINK_WriteReg(XPSR, 0x01000000)
T42C8 3898:885.507 - 0.017ms returns 0
T42C8 3898:885.522 JLINK_WriteReg(MSP, 0x20002000)
T42C8 3898:885.533 - 0.017ms returns 0
T42C8 3898:885.548 JLINK_WriteReg(PSP, 0x20002000)
T42C8 3898:885.559 - 0.016ms returns 0
T42C8 3898:885.573 JLINK_WriteReg(CFBP, 0x00000000)
T42C8 3898:885.585 - 0.016ms returns 0
T42C8 3898:885.599 JLINK_SetBPEx(Addr = 0x20000000, Type = 0xFFFFFFF2)
T42C8 3898:885.612 - 0.018ms returns 0x00000005
T42C8 3898:885.627 JLINK_Go()
T42C8 3898:885.646   CPU_ReadMem(4 bytes @ 0xE0001000)
T42C8 3898:892.137 - 6.524ms
T42C8 3898:892.166 JLINK_IsHalted()
T42C8 3898:892.840 - 0.685ms returns FALSE
T42C8 3898:892.865 JLINK_HasError()
T42C8 3898:895.896 JLINK_IsHalted()
T42C8 3898:902.423   CPU_ReadMem(2 bytes @ 0x20000000)
T42C8 3898:903.020 - 7.138ms returns TRUE
T42C8 3898:903.065 JLINK_ReadReg(R15 (PC))
T42C8 3898:903.081 - 0.020ms returns 0x20000000
T42C8 3898:903.096 JLINK_ClrBPEx(BPHandle = 0x00000005)
T42C8 3898:903.108 - 0.017ms returns 0x00
T42C8 3898:903.123 JLINK_ReadReg(R0)
T42C8 3898:903.135 - 0.017ms returns 0x00000000
T42C8 3898:903.938 JLINK_HasError()
T42C8 3898:903.961 JLINK_WriteReg(R0, 0x00021000)
T42C8 3898:903.978 - 0.024ms returns 0
T42C8 3898:903.995 JLINK_WriteReg(R1, 0x00001000)
T42C8 3898:904.006 - 0.017ms returns 0
T42C8 3898:904.022 JLINK_WriteReg(R2, 0x000000FF)
T42C8 3898:904.035 - 0.018ms returns 0
T42C8 3898:904.049 JLINK_WriteReg(R3, 0x00000000)
T42C8 3898:904.061 - 0.017ms returns 0
T42C8 3898:904.076 JLINK_WriteReg(R4, 0x00000000)
T42C8 3898:904.088 - 0.017ms returns 0
T42C8 3898:904.102 JLINK_WriteReg(R5, 0x00000000)
T42C8 3898:904.113 - 0.016ms returns 0
T42C8 3898:904.128 JLINK_WriteReg(R6, 0x00000000)
T42C8 3898:904.139 - 0.016ms returns 0
T42C8 3898:904.154 JLINK_WriteReg(R7, 0x00000000)
T42C8 3898:904.165 - 0.017ms returns 0
T42C8 3898:904.180 JLINK_WriteReg(R8, 0x00000000)
T42C8 3898:904.191 - 0.016ms returns 0
T42C8 3898:904.205 JLINK_WriteReg(R9, 0x20000224)
T42C8 3898:904.217 - 0.017ms returns 0
T42C8 3898:904.232 JLINK_WriteReg(R10, 0x00000000)
T42C8 3898:904.243 - 0.016ms returns 0
T42C8 3898:904.257 JLINK_WriteReg(R11, 0x00000000)
T42C8 3898:904.268 - 0.016ms returns 0
T42C8 3898:904.282 JLINK_WriteReg(R12, 0x00000000)
T42C8 3898:904.294 - 0.016ms returns 0
T42C8 3898:904.308 JLINK_WriteReg(R13 (SP), 0x20002000)
T42C8 3898:904.320 - 0.017ms returns 0
T42C8 3898:904.334 JLINK_WriteReg(R14, 0x20000001)
T42C8 3898:904.346 - 0.016ms returns 0
T42C8 3898:904.360 JLINK_WriteReg(R15 (PC), 0x20000110)
T42C8 3898:904.371 - 0.016ms returns 0
T42C8 3898:904.386 JLINK_WriteReg(XPSR, 0x01000000)
T42C8 3898:904.398 - 0.017ms returns 0
T42C8 3898:904.412 JLINK_WriteReg(MSP, 0x20002000)
T42C8 3898:904.423 - 0.016ms returns 0
T42C8 3898:904.438 JLINK_WriteReg(PSP, 0x20002000)
T42C8 3898:904.449 - 0.016ms returns 0
T42C8 3898:904.463 JLINK_WriteReg(CFBP, 0x00000000)
T42C8 3898:904.474 - 0.016ms returns 0
T42C8 3898:904.489 JLINK_SetBPEx(Addr = 0x20000000, Type = 0xFFFFFFF2)
T42C8 3898:904.502 - 0.018ms returns 0x00000006
T42C8 3898:904.517 JLINK_Go()
T42C8 3898:904.537   CPU_ReadMem(4 bytes @ 0xE0001000)
T42C8 3898:910.976 - 6.479ms
T42C8 3898:911.015 JLINK_IsHalted()
T42C8 3898:917.437   CPU_ReadMem(2 bytes @ 0x20000000)
T42C8 3898:918.042 - 7.039ms returns TRUE
T42C8 3898:918.110 JLINK_ReadReg(R15 (PC))
T42C8 3898:918.126 - 0.022ms returns 0x20000000
T42C8 3898:918.145 JLINK_ClrBPEx(BPHandle = 0x00000006)
T42C8 3898:918.194 - 0.056ms returns 0x00
T42C8 3898:918.231 JLINK_ReadReg(R0)
T42C8 3898:918.243 - 0.017ms returns 0x00000001
T42C8 3898:918.261 JLINK_HasError()
T42C8 3898:918.277 JLINK_WriteReg(R0, 0x00021000)
T42C8 3898:918.290 - 0.043ms returns 0
T42C8 3898:918.333 JLINK_WriteReg(R1, 0x00001000)
T42C8 3898:918.344 - 0.017ms returns 0
T42C8 3898:918.361 JLINK_WriteReg(R2, 0x000000FF)
T42C8 3898:918.410 - 0.054ms returns 0
T42C8 3898:918.427 JLINK_WriteReg(R3, 0x00000000)
T42C8 3898:918.456 - 0.034ms returns 0
T42C8 3898:918.474 JLINK_WriteReg(R4, 0x00000000)
T42C8 3898:918.485 - 0.018ms returns 0
T42C8 3898:918.501 JLINK_WriteReg(R5, 0x00000000)
T42C8 3898:918.513 - 0.018ms returns 0
T42C8 3898:918.530 JLINK_WriteReg(R6, 0x00000000)
T42C8 3898:918.542 - 0.017ms returns 0
T42C8 3898:918.557 JLINK_WriteReg(R7, 0x00000000)
T42C8 3898:918.569 - 0.040ms returns 0
T42C8 3898:918.610 JLINK_WriteReg(R8, 0x00000000)
T42C8 3898:918.621 - 0.017ms returns 0
T42C8 3898:918.638 JLINK_WriteReg(R9, 0x20000224)
T42C8 3898:918.687 - 0.055ms returns 0
T42C8 3898:918.705 JLINK_WriteReg(R10, 0x00000000)
T42C8 3898:918.717 - 0.033ms returns 0
T42C8 3898:918.768 JLINK_WriteReg(R11, 0x00000000)
T42C8 3898:918.801 - 0.055ms returns 0
T42C8 3898:918.835 JLINK_WriteReg(R12, 0x00000000)
T42C8 3898:918.847 - 0.017ms returns 0
T42C8 3898:918.862 JLINK_WriteReg(R13 (SP), 0x20002000)
T42C8 3898:918.874 - 0.017ms returns 0
T42C8 3898:918.909 JLINK_WriteReg(R14, 0x20000001)
T42C8 3898:918.921 - 0.017ms returns 0
T42C8 3898:918.953 JLINK_WriteReg(R15 (PC), 0x200000CE)
T42C8 3898:918.987 - 0.039ms returns 0
T42C8 3898:919.004 JLINK_WriteReg(XPSR, 0x01000000)
T42C8 3898:919.033 - 0.034ms returns 0
T42C8 3898:919.064 JLINK_WriteReg(MSP, 0x20002000)
T42C8 3898:919.079 - 0.038ms returns 0
T42C8 3898:919.130 JLINK_WriteReg(PSP, 0x20002000)
T42C8 3898:919.142 - 0.017ms returns 0
T42C8 3898:919.159 JLINK_WriteReg(CFBP, 0x00000000)
T42C8 3898:919.203 - 0.050ms returns 0
T42C8 3898:919.221 JLINK_SetBPEx(Addr = 0x20000000, Type = 0xFFFFFFF2)
T42C8 3898:919.233 - 0.018ms returns 0x00000007
T42C8 3898:919.251 JLINK_Go()
T42C8 3898:919.270   CPU_ReadMem(4 bytes @ 0xE0001000)
T42C8 3898:925.860 - 6.627ms
T42C8 3898:925.897 JLINK_IsHalted()
T42C8 3898:926.626 - 0.740ms returns FALSE
T42C8 3898:926.675 JLINK_HasError()
T42C8 3898:928.753 JLINK_IsHalted()
T42C8 3898:935.216   CPU_ReadMem(2 bytes @ 0x20000000)
T42C8 3898:935.819 - 7.093ms returns TRUE
T42C8 3898:935.861 JLINK_ReadReg(R15 (PC))
T42C8 3898:935.876 - 0.020ms returns 0x20000000
T42C8 3898:935.891 JLINK_ClrBPEx(BPHandle = 0x00000007)
T42C8 3898:935.903 - 0.017ms returns 0x00
T42C8 3898:935.917 JLINK_ReadReg(R0)
T42C8 3898:935.929 - 0.017ms returns 0x00000000
T42C8 3898:936.537 JLINK_HasError()
T42C8 3898:936.559 JLINK_WriteReg(R0, 0x00022000)
T42C8 3898:936.571 - 0.018ms returns 0
T42C8 3898:936.586 JLINK_WriteReg(R1, 0x00001000)
T42C8 3898:936.598 - 0.017ms returns 0
T42C8 3898:936.612 JLINK_WriteReg(R2, 0x000000FF)
T42C8 3898:936.624 - 0.016ms returns 0
T42C8 3898:936.638 JLINK_WriteReg(R3, 0x00000000)
T42C8 3898:936.649 - 0.016ms returns 0
T42C8 3898:936.664 JLINK_WriteReg(R4, 0x00000000)
T42C8 3898:936.675 - 0.016ms returns 0
T42C8 3898:936.689 JLINK_WriteReg(R5, 0x00000000)
T42C8 3898:936.714 - 0.053ms returns 0
T42C8 3898:936.752 JLINK_WriteReg(R6, 0x00000000)
T42C8 3898:936.764 - 0.033ms returns 0
T42C8 3898:936.796 JLINK_WriteReg(R7, 0x00000000)
T42C8 3898:936.807 - 0.017ms returns 0
T42C8 3898:936.822 JLINK_WriteReg(R8, 0x00000000)
T42C8 3898:936.834 - 0.017ms returns 0
T42C8 3898:936.849 JLINK_WriteReg(R9, 0x20000224)
T42C8 3898:936.876 - 0.032ms returns 0
T42C8 3898:936.890 JLINK_WriteReg(R10, 0x00000000)
T42C8 3898:936.902 - 0.016ms returns 0
T42C8 3898:936.916 JLINK_WriteReg(R11, 0x00000000)
T42C8 3898:936.927 - 0.016ms returns 0
T42C8 3898:936.942 JLINK_WriteReg(R12, 0x00000000)
T42C8 3898:936.953 - 0.016ms returns 0
T42C8 3898:936.967 JLINK_WriteReg(R13 (SP), 0x20002000)
T42C8 3898:936.979 - 0.017ms returns 0
T42C8 3898:936.993 JLINK_WriteReg(R14, 0x20000001)
T42C8 3898:937.004 - 0.016ms returns 0
T42C8 3898:937.019 JLINK_WriteReg(R15 (PC), 0x20000110)
T42C8 3898:937.030 - 0.016ms returns 0
T42C8 3898:937.044 JLINK_WriteReg(XPSR, 0x01000000)
T42C8 3898:937.056 - 0.016ms returns 0
T42C8 3898:937.070 JLINK_WriteReg(MSP, 0x20002000)
T42C8 3898:937.081 - 0.016ms returns 0
T42C8 3898:937.095 JLINK_WriteReg(PSP, 0x20002000)
T42C8 3898:937.107 - 0.016ms returns 0
T42C8 3898:937.121 JLINK_WriteReg(CFBP, 0x00000000)
T42C8 3898:937.132 - 0.016ms returns 0
T42C8 3898:937.147 JLINK_SetBPEx(Addr = 0x20000000, Type = 0xFFFFFFF2)
T42C8 3898:937.159 - 0.017ms returns 0x00000008
T42C8 3898:937.174 JLINK_Go()
T42C8 3898:937.192   CPU_ReadMem(4 bytes @ 0xE0001000)
T42C8 3898:943.957 - 6.830ms
T42C8 3898:944.042 JLINK_IsHalted()
T42C8 3898:950.808   CPU_ReadMem(2 bytes @ 0x20000000)
T42C8 3898:951.590 - 7.573ms returns TRUE
T42C8 3898:951.628 JLINK_ReadReg(R15 (PC))
T42C8 3898:951.641 - 0.018ms returns 0x20000000
T42C8 3898:951.655 JLINK_ClrBPEx(BPHandle = 0x00000008)
T42C8 3898:951.666 - 0.016ms returns 0x00
T42C8 3898:951.681 JLINK_ReadReg(R0)
T42C8 3898:951.692 - 0.016ms returns 0x00000001
T42C8 3898:951.708 JLINK_HasError()
T42C8 3898:951.722 JLINK_WriteReg(R0, 0x00022000)
T42C8 3898:951.734 - 0.016ms returns 0
T42C8 3898:951.748 JLINK_WriteReg(R1, 0x00001000)
T42C8 3898:951.759 - 0.016ms returns 0
T42C8 3898:951.773 JLINK_WriteReg(R2, 0x000000FF)
T42C8 3898:951.784 - 0.016ms returns 0
T42C8 3898:951.798 JLINK_WriteReg(R3, 0x00000000)
T42C8 3898:951.809 - 0.016ms returns 0
T42C8 3898:951.823 JLINK_WriteReg(R4, 0x00000000)
T42C8 3898:951.834 - 0.016ms returns 0
T42C8 3898:951.848 JLINK_WriteReg(R5, 0x00000000)
T42C8 3898:951.859 - 0.019ms returns 0
T42C8 3898:951.878 JLINK_WriteReg(R6, 0x00000000)
T42C8 3898:951.889 - 0.016ms returns 0
T42C8 3898:951.903 JLINK_WriteReg(R7, 0x00000000)
T42C8 3898:951.914 - 0.016ms returns 0
T42C8 3898:951.928 JLINK_WriteReg(R8, 0x00000000)
T42C8 3898:951.939 - 0.016ms returns 0
T42C8 3898:951.954 JLINK_WriteReg(R9, 0x20000224)
T42C8 3898:951.965 - 0.016ms returns 0
T42C8 3898:951.979 JLINK_WriteReg(R10, 0x00000000)
T42C8 3898:951.990 - 0.016ms returns 0
T42C8 3898:952.004 JLINK_WriteReg(R11, 0x00000000)
T42C8 3898:952.015 - 0.016ms returns 0
T42C8 3898:952.050 JLINK_WriteReg(R12, 0x00000000)
T42C8 3898:952.092 - 0.047ms returns 0
T42C8 3898:952.131 JLINK_WriteReg(R13 (SP), 0x20002000)
T42C8 3898:952.179 - 0.053ms returns 0
T42C8 3898:952.197 JLINK_WriteReg(R14, 0x20000001)
T42C8 3898:952.208 - 0.016ms returns 0
T42C8 3898:952.222 JLINK_WriteReg(R15 (PC), 0x200000CE)
T42C8 3898:952.233 - 0.016ms returns 0
T42C8 3898:952.249 JLINK_WriteReg(XPSR, 0x01000000)
T42C8 3898:952.260 - 0.016ms returns 0
T42C8 3898:952.276 JLINK_WriteReg(MSP, 0x20002000)
T42C8 3898:952.287 - 0.016ms returns 0
T42C8 3898:952.301 JLINK_WriteReg(PSP, 0x20002000)
T42C8 3898:952.312 - 0.016ms returns 0
T42C8 3898:952.328 JLINK_WriteReg(CFBP, 0x00000000)
T42C8 3898:952.339 - 0.016ms returns 0
T42C8 3898:952.355 JLINK_SetBPEx(Addr = 0x20000000, Type = 0xFFFFFFF2)
T42C8 3898:952.367 - 0.017ms returns 0x00000009
T42C8 3898:952.382 JLINK_Go()
T42C8 3898:952.398   CPU_ReadMem(4 bytes @ 0xE0001000)
T42C8 3898:959.398 - 7.029ms
T42C8 3898:959.427 JLINK_IsHalted()
T42C8 3898:960.267 - 0.851ms returns FALSE
T42C8 3898:960.294 JLINK_HasError()
T42C8 3898:972.213 JLINK_IsHalted()
T42C8 3898:978.886   CPU_ReadMem(2 bytes @ 0x20000000)
T42C8 3898:979.662 - 7.461ms returns TRUE
T42C8 3898:979.687 JLINK_ReadReg(R15 (PC))
T42C8 3898:979.702 - 0.020ms returns 0x20000000
T42C8 3898:979.717 JLINK_ClrBPEx(BPHandle = 0x00000009)
T42C8 3898:979.729 - 0.016ms returns 0x00
T42C8 3898:979.743 JLINK_ReadReg(R0)
T42C8 3898:979.754 - 0.016ms returns 0x00000000
T42C8 3898:980.353 JLINK_HasError()
T42C8 3898:980.394 JLINK_WriteReg(R0, 0x00023000)
T42C8 3898:980.413 - 0.048ms returns 0
T42C8 3898:980.497 JLINK_WriteReg(R1, 0x00001000)
T42C8 3898:980.510 - 0.018ms returns 0
T42C8 3898:980.526 JLINK_WriteReg(R2, 0x000000FF)
T42C8 3898:980.555 - 0.034ms returns 0
T42C8 3898:980.569 JLINK_WriteReg(R3, 0x00000000)
T42C8 3898:980.581 - 0.017ms returns 0
T42C8 3898:980.595 JLINK_WriteReg(R4, 0x00000000)
T42C8 3898:980.607 - 0.016ms returns 0
T42C8 3898:980.621 JLINK_WriteReg(R5, 0x00000000)
T42C8 3898:980.653 - 0.037ms returns 0
T42C8 3898:980.685 JLINK_WriteReg(R6, 0x00000000)
T42C8 3898:980.697 - 0.017ms returns 0
T42C8 3898:980.712 JLINK_WriteReg(R7, 0x00000000)
T42C8 3898:980.724 - 0.017ms returns 0
T42C8 3898:980.739 JLINK_WriteReg(R8, 0x00000000)
T42C8 3898:980.751 - 0.017ms returns 0
T42C8 3898:980.766 JLINK_WriteReg(R9, 0x20000224)
T42C8 3898:980.794 - 0.033ms returns 0
T42C8 3898:980.809 JLINK_WriteReg(R10, 0x00000000)
T42C8 3898:980.820 - 0.016ms returns 0
T42C8 3898:980.834 JLINK_WriteReg(R11, 0x00000000)
T42C8 3898:980.845 - 0.016ms returns 0
T42C8 3898:980.859 JLINK_WriteReg(R12, 0x00000000)
T42C8 3898:980.871 - 0.017ms returns 0
T42C8 3898:980.885 JLINK_WriteReg(R13 (SP), 0x20002000)
T42C8 3898:980.897 - 0.017ms returns 0
T42C8 3898:980.932 JLINK_WriteReg(R14, 0x20000001)
T42C8 3898:980.944 - 0.017ms returns 0
T42C8 3898:980.976 JLINK_WriteReg(R15 (PC), 0x20000110)
T42C8 3898:981.010 - 0.040ms returns 0
T42C8 3898:981.025 JLINK_WriteReg(XPSR, 0x01000000)
T42C8 3898:981.054 - 0.034ms returns 0
T42C8 3898:981.070 JLINK_WriteReg(MSP, 0x20002000)
T42C8 3898:981.081 - 0.017ms returns 0
T42C8 3898:981.096 JLINK_WriteReg(PSP, 0x20002000)
T42C8 3898:981.107 - 0.017ms returns 0
T42C8 3898:981.122 JLINK_WriteReg(CFBP, 0x00000000)
T42C8 3898:981.149 - 0.032ms returns 0
T42C8 3898:981.164 JLINK_SetBPEx(Addr = 0x20000000, Type = 0xFFFFFFF2)
T42C8 3898:981.177 - 0.019ms returns 0x0000000A
T42C8 3898:981.216 JLINK_Go()
T42C8 3898:981.238   CPU_ReadMem(4 bytes @ 0xE0001000)
T42C8 3898:988.242 - 7.060ms
T42C8 3898:988.293 JLINK_IsHalted()
T42C8 3898:995.037   CPU_ReadMem(2 bytes @ 0x20000000)
T42C8 3898:995.886 - 7.605ms returns TRUE
T42C8 3898:995.914 JLINK_ReadReg(R15 (PC))
T42C8 3898:995.927 - 0.019ms returns 0x20000000
T42C8 3898:995.942 JLINK_ClrBPEx(BPHandle = 0x0000000A)
T42C8 3898:995.954 - 0.017ms returns 0x00
T42C8 3898:995.971 JLINK_ReadReg(R0)
T42C8 3898:995.982 - 0.016ms returns 0x00000001
T42C8 3898:995.997 JLINK_HasError()
T42C8 3898:996.011 JLINK_WriteReg(R0, 0x00023000)
T42C8 3898:996.023 - 0.017ms returns 0
T42C8 3898:996.039 JLINK_WriteReg(R1, 0x00001000)
T42C8 3898:996.050 - 0.016ms returns 0
T42C8 3898:996.065 JLINK_WriteReg(R2, 0x000000FF)
T42C8 3898:996.076 - 0.016ms returns 0
T42C8 3898:996.092 JLINK_WriteReg(R3, 0x00000000)
T42C8 3898:996.103 - 0.016ms returns 0
T42C8 3898:996.119 JLINK_WriteReg(R4, 0x00000000)
T42C8 3898:996.130 - 0.016ms returns 0
T42C8 3898:996.144 JLINK_WriteReg(R5, 0x00000000)
T42C8 3898:996.156 - 0.016ms returns 0
T42C8 3898:996.194 JLINK_WriteReg(R6, 0x00000000)
T42C8 3898:996.206 - 0.017ms returns 0
T42C8 3898:996.238 JLINK_WriteReg(R7, 0x00000000)
T42C8 3898:996.249 - 0.016ms returns 0
T42C8 3898:996.263 JLINK_WriteReg(R8, 0x00000000)
T42C8 3898:996.274 - 0.016ms returns 0
T42C8 3898:996.288 JLINK_WriteReg(R9, 0x20000224)
T42C8 3898:996.298 - 0.016ms returns 0
T42C8 3898:996.314 JLINK_WriteReg(R10, 0x00000000)
T42C8 3898:996.325 - 0.016ms returns 0
T42C8 3898:996.339 JLINK_WriteReg(R11, 0x00000000)
T42C8 3898:996.350 - 0.016ms returns 0
T42C8 3898:996.366 JLINK_WriteReg(R12, 0x00000000)
T42C8 3898:996.377 - 0.016ms returns 0
T42C8 3898:996.392 JLINK_WriteReg(R13 (SP), 0x20002000)
T42C8 3898:996.459 - 0.076ms returns 0
T42C8 3898:996.506 JLINK_WriteReg(R14, 0x20000001)
T42C8 3898:996.522 - 0.022ms returns 0
T42C8 3898:996.540 JLINK_WriteReg(R15 (PC), 0x200000CE)
T42C8 3898:996.552 - 0.017ms returns 0
T42C8 3898:996.567 JLINK_WriteReg(XPSR, 0x01000000)
T42C8 3898:996.579 - 0.017ms returns 0
T42C8 3898:996.596 JLINK_WriteReg(MSP, 0x20002000)
T42C8 3898:996.609 - 0.018ms returns 0
T42C8 3898:996.624 JLINK_WriteReg(PSP, 0x20002000)
T42C8 3898:996.635 - 0.017ms returns 0
T42C8 3898:996.652 JLINK_WriteReg(CFBP, 0x00000000)
T42C8 3898:996.679 - 0.032ms returns 0
T42C8 3898:996.694 JLINK_SetBPEx(Addr = 0x20000000, Type = 0xFFFFFFF2)
T42C8 3898:996.706 - 0.018ms returns 0x0000000B
T42C8 3898:996.858 JLINK_Go()
T42C8 3898:996.904   CPU_ReadMem(4 bytes @ 0xE0001000)
T42C8 3899:003.907 - 7.067ms
T42C8 3899:003.939 JLINK_IsHalted()
T42C8 3899:004.808 - 0.896ms returns FALSE
T42C8 3899:004.849 JLINK_HasError()
T42C8 3899:011.147 JLINK_IsHalted()
T42C8 3899:017.822   CPU_ReadMem(2 bytes @ 0x20000000)
T42C8 3899:018.505 - 7.371ms returns TRUE
T42C8 3899:018.532 JLINK_ReadReg(R15 (PC))
T42C8 3899:018.546 - 0.019ms returns 0x20000000
T42C8 3899:018.561 JLINK_ClrBPEx(BPHandle = 0x0000000B)
T42C8 3899:018.572 - 0.016ms returns 0x00
T42C8 3899:018.587 JLINK_ReadReg(R0)
T42C8 3899:018.598 - 0.016ms returns 0x00000000
T42C8 3899:019.058 JLINK_HasError()
T42C8 3899:019.095 JLINK_WriteReg(R0, 0x00000001)
T42C8 3899:019.107 - 0.017ms returns 0
T42C8 3899:019.122 JLINK_WriteReg(R1, 0x00001000)
T42C8 3899:019.133 - 0.016ms returns 0
T42C8 3899:019.147 JLINK_WriteReg(R2, 0x000000FF)
T42C8 3899:019.158 - 0.016ms returns 0
T42C8 3899:019.172 JLINK_WriteReg(R3, 0x00000000)
T42C8 3899:019.183 - 0.016ms returns 0
T42C8 3899:019.197 JLINK_WriteReg(R4, 0x00000000)
T42C8 3899:019.207 - 0.016ms returns 0
T42C8 3899:019.221 JLINK_WriteReg(R5, 0x00000000)
T42C8 3899:019.233 - 0.017ms returns 0
T42C8 3899:019.247 JLINK_WriteReg(R6, 0x00000000)
T42C8 3899:019.258 - 0.016ms returns 0
T42C8 3899:019.272 JLINK_WriteReg(R7, 0x00000000)
T42C8 3899:019.282 - 0.016ms returns 0
T42C8 3899:019.296 JLINK_WriteReg(R8, 0x00000000)
T42C8 3899:019.307 - 0.016ms returns 0
T42C8 3899:019.321 JLINK_WriteReg(R9, 0x20000224)
T42C8 3899:019.332 - 0.019ms returns 0
T42C8 3899:019.351 JLINK_WriteReg(R10, 0x00000000)
T42C8 3899:019.362 - 0.016ms returns 0
T42C8 3899:019.376 JLINK_WriteReg(R11, 0x00000000)
T42C8 3899:019.387 - 0.018ms returns 0
T42C8 3899:019.405 JLINK_WriteReg(R12, 0x00000000)
T42C8 3899:019.458 - 0.058ms returns 0
T42C8 3899:019.478 JLINK_WriteReg(R13 (SP), 0x20002000)
T42C8 3899:019.490 - 0.018ms returns 0
T42C8 3899:019.506 JLINK_WriteReg(R14, 0x20000001)
T42C8 3899:019.518 - 0.017ms returns 0
T42C8 3899:019.532 JLINK_WriteReg(R15 (PC), 0x20000084)
T42C8 3899:019.544 - 0.017ms returns 0
T42C8 3899:019.559 JLINK_WriteReg(XPSR, 0x01000000)
T42C8 3899:019.571 - 0.017ms returns 0
T42C8 3899:019.585 JLINK_WriteReg(MSP, 0x20002000)
T42C8 3899:019.612 - 0.031ms returns 0
T42C8 3899:019.626 JLINK_WriteReg(PSP, 0x20002000)
T42C8 3899:019.637 - 0.016ms returns 0
T42C8 3899:019.651 JLINK_WriteReg(CFBP, 0x00000000)
T42C8 3899:019.662 - 0.016ms returns 0
T42C8 3899:019.676 JLINK_SetBPEx(Addr = 0x20000000, Type = 0xFFFFFFF2)
T42C8 3899:019.688 - 0.017ms returns 0x0000000C
T42C8 3899:019.702 JLINK_Go()
T42C8 3899:019.720   CPU_ReadMem(4 bytes @ 0xE0001000)
T42C8 3899:026.594 - 6.909ms
T42C8 3899:026.631 JLINK_IsHalted()
T42C8 3899:033.411   CPU_ReadMem(2 bytes @ 0x20000000)
T42C8 3899:034.119 - 7.499ms returns TRUE
T42C8 3899:034.148 JLINK_ReadReg(R15 (PC))
T42C8 3899:034.162 - 0.019ms returns 0x20000000
T42C8 3899:034.177 JLINK_ClrBPEx(BPHandle = 0x0000000C)
T42C8 3899:034.188 - 0.016ms returns 0x00
T42C8 3899:034.205 JLINK_ReadReg(R0)
T42C8 3899:034.216 - 0.016ms returns 0x00000000
T42C8 3899:091.976 JLINK_WriteMem(0x20000000, 0x228 Bytes, ...)
T42C8 3899:091.998   Data:  00 BE 0A E0 0D 78 2D 06 68 40 08 24 40 00 00 D3 ...
T42C8 3899:092.026   CPU_WriteMem(552 bytes @ 0x20000000)
T42C8 3899:099.780 - 7.837ms returns 0x228
T42C8 3899:099.855 JLINK_HasError()
T42C8 3899:099.872 JLINK_WriteReg(R0, 0x00000000)
T42C8 3899:099.887 - 0.020ms returns 0
T42C8 3899:099.901 JLINK_WriteReg(R1, 0x03D09000)
T42C8 3899:099.913 - 0.016ms returns 0
T42C8 3899:099.927 JLINK_WriteReg(R2, 0x00000002)
T42C8 3899:099.938 - 0.016ms returns 0
T42C8 3899:099.952 JLINK_WriteReg(R3, 0x00000000)
T42C8 3899:099.962 - 0.016ms returns 0
T42C8 3899:099.976 JLINK_WriteReg(R4, 0x00000000)
T42C8 3899:099.987 - 0.016ms returns 0
T42C8 3899:100.001 JLINK_WriteReg(R5, 0x00000000)
T42C8 3899:100.012 - 0.016ms returns 0
T42C8 3899:100.026 JLINK_WriteReg(R6, 0x00000000)
T42C8 3899:100.038 - 0.017ms returns 0
T42C8 3899:100.052 JLINK_WriteReg(R7, 0x00000000)
T42C8 3899:100.063 - 0.016ms returns 0
T42C8 3899:100.077 JLINK_WriteReg(R8, 0x00000000)
T42C8 3899:100.088 - 0.016ms returns 0
T42C8 3899:100.102 JLINK_WriteReg(R9, 0x20000224)
T42C8 3899:100.112 - 0.016ms returns 0
T42C8 3899:100.126 JLINK_WriteReg(R10, 0x00000000)
T42C8 3899:100.137 - 0.016ms returns 0
T42C8 3899:100.151 JLINK_WriteReg(R11, 0x00000000)
T42C8 3899:100.162 - 0.016ms returns 0
T42C8 3899:100.176 JLINK_WriteReg(R12, 0x00000000)
T42C8 3899:100.187 - 0.016ms returns 0
T42C8 3899:100.201 JLINK_WriteReg(R13 (SP), 0x20002000)
T42C8 3899:100.212 - 0.016ms returns 0
T42C8 3899:100.226 JLINK_WriteReg(R14, 0x20000001)
T42C8 3899:100.237 - 0.016ms returns 0
T42C8 3899:100.251 JLINK_WriteReg(R15 (PC), 0x2000003C)
T42C8 3899:100.262 - 0.016ms returns 0
T42C8 3899:100.276 JLINK_WriteReg(XPSR, 0x01000000)
T42C8 3899:100.287 - 0.016ms returns 0
T42C8 3899:100.301 JLINK_WriteReg(MSP, 0x20002000)
T42C8 3899:100.312 - 0.016ms returns 0
T42C8 3899:100.326 JLINK_WriteReg(PSP, 0x20002000)
T42C8 3899:100.336 - 0.016ms returns 0
T42C8 3899:100.350 JLINK_WriteReg(CFBP, 0x00000000)
T42C8 3899:100.361 - 0.016ms returns 0
T42C8 3899:100.375 JLINK_SetBPEx(Addr = 0x20000000, Type = 0xFFFFFFF2)
T42C8 3899:100.392   CPU_ReadMem(2 bytes @ 0x20000000)
T42C8 3899:101.248 - 0.884ms returns 0x0000000D
T42C8 3899:101.273 JLINK_Go()
T42C8 3899:101.287   CPU_WriteMem(2 bytes @ 0x20000000)
T42C8 3899:102.015   CPU_ReadMem(4 bytes @ 0xE0001000)
T42C8 3899:108.860 - 7.615ms
T42C8 3899:108.905 JLINK_IsHalted()
T42C8 3899:115.698   CPU_ReadMem(2 bytes @ 0x20000000)
T42C8 3899:116.567 - 7.674ms returns TRUE
T42C8 3899:116.596 JLINK_ReadReg(R15 (PC))
T42C8 3899:116.611 - 0.019ms returns 0x20000000
T42C8 3899:116.625 JLINK_ClrBPEx(BPHandle = 0x0000000D)
T42C8 3899:116.637 - 0.017ms returns 0x00
T42C8 3899:116.653 JLINK_ReadReg(R0)
T42C8 3899:116.665 - 0.016ms returns 0x00000000
T42C8 3899:117.037 JLINK_WriteMem(0x20000228, 0x1D8 Bytes, ...)
T42C8 3899:117.053   Data:  38 4E 00 20 15 F2 01 00 1D F2 01 00 1F F2 01 00 ...
T42C8 3899:117.077   CPU_WriteMem(472 bytes @ 0x20000228)
T42C8 3899:123.856 - 6.849ms returns 0x1D8
T42C8 3899:123.900 JLINK_WriteMem(0x20000400, 0x400 Bytes, ...)
T42C8 3899:123.913   Data:  00 00 00 00 00 00 00 00 00 00 00 00 00 00 00 00 ...
T42C8 3899:123.952   CPU_WriteMem(1024 bytes @ 0x20000400)
T42C8 3899:137.874 - 14.006ms returns 0x400
T42C8 3899:137.921 JLINK_WriteMem(0x20000800, 0x400 Bytes, ...)
T42C8 3899:137.933   Data:  AE D3 00 2E 0E D0 6A 46 01 21 00 20 02 F0 92 FE ...
T42C8 3899:137.958   CPU_WriteMem(1024 bytes @ 0x20000800)
T42C8 3899:151.758 - 13.877ms returns 0x400
T42C8 3899:151.838 JLINK_WriteMem(0x20000C00, 0x400 Bytes, ...)
T42C8 3899:151.852   Data:  FC D0 13 60 01 68 00 29 FC D0 BF F3 4F 8F 0D 48 ...
T42C8 3899:151.936   CPU_WriteMem(1024 bytes @ 0x20000C00)
T42C8 3899:165.983 - 14.170ms returns 0x400
T42C8 3899:166.028 JLINK_WriteMem(0x20001000, 0x228 Bytes, ...)
T42C8 3899:166.040   Data:  0A 92 0B E0 3A A2 F9 E7 5B 46 08 9A FF F7 28 FA ...
T42C8 3899:166.067   CPU_WriteMem(552 bytes @ 0x20001000)
T42C8 3899:173.854 - 7.869ms returns 0x228
T42C8 3899:173.932 JLINK_HasError()
T42C8 3899:173.951 JLINK_WriteReg(R0, 0x0001F000)
T42C8 3899:173.965 - 0.020ms returns 0
T42C8 3899:173.998 JLINK_WriteReg(R1, 0x00001000)
T42C8 3899:174.030 - 0.037ms returns 0
T42C8 3899:174.046 JLINK_WriteReg(R2, 0x20000228)
T42C8 3899:174.057 - 0.032ms returns 0
T42C8 3899:174.108 JLINK_WriteReg(R3, 0x00000000)
T42C8 3899:174.119 - 0.016ms returns 0
T42C8 3899:174.135 JLINK_WriteReg(R4, 0x00000000)
T42C8 3899:174.162 - 0.032ms returns 0
T42C8 3899:174.194 JLINK_WriteReg(R5, 0x00000000)
T42C8 3899:174.205 - 0.016ms returns 0
T42C8 3899:174.242 JLINK_WriteReg(R6, 0x00000000)
T42C8 3899:174.279 - 0.063ms returns 0
T42C8 3899:174.334 JLINK_WriteReg(R7, 0x00000000)
T42C8 3899:174.362 - 0.033ms returns 0
T42C8 3899:174.378 JLINK_WriteReg(R8, 0x00000000)
T42C8 3899:174.390 - 0.016ms returns 0
T42C8 3899:174.404 JLINK_WriteReg(R9, 0x20000224)
T42C8 3899:174.415 - 0.031ms returns 0
T42C8 3899:174.465 JLINK_WriteReg(R10, 0x00000000)
T42C8 3899:174.476 - 0.016ms returns 0
T42C8 3899:174.492 JLINK_WriteReg(R11, 0x00000000)
T42C8 3899:174.519 - 0.052ms returns 0
T42C8 3899:174.554 JLINK_WriteReg(R12, 0x00000000)
T42C8 3899:174.565 - 0.016ms returns 0
T42C8 3899:174.598 JLINK_WriteReg(R13 (SP), 0x20002000)
T42C8 3899:174.630 - 0.038ms returns 0
T42C8 3899:174.646 JLINK_WriteReg(R14, 0x20000001)
T42C8 3899:174.673 - 0.032ms returns 0
T42C8 3899:174.689 JLINK_WriteReg(R15 (PC), 0x2000014C)
T42C8 3899:174.700 - 0.016ms returns 0
T42C8 3899:174.714 JLINK_WriteReg(XPSR, 0x01000000)
T42C8 3899:174.725 - 0.016ms returns 0
T42C8 3899:174.757 JLINK_WriteReg(MSP, 0x20002000)
T42C8 3899:174.784 - 0.032ms returns 0
T42C8 3899:174.800 JLINK_WriteReg(PSP, 0x20002000)
T42C8 3899:174.811 - 0.016ms returns 0
T42C8 3899:174.825 JLINK_WriteReg(CFBP, 0x00000000)
T42C8 3899:174.852 - 0.052ms returns 0
T42C8 3899:174.889 JLINK_SetBPEx(Addr = 0x20000000, Type = 0xFFFFFFF2)
T42C8 3899:174.901 - 0.018ms returns 0x0000000E
T42C8 3899:174.934 JLINK_Go()
T42C8 3899:174.973   CPU_ReadMem(4 bytes @ 0xE0001000)
T42C8 3899:181.969 - 7.047ms
T42C8 3899:182.017 JLINK_IsHalted()
T42C8 3899:182.875 - 0.885ms returns FALSE
T42C8 3899:182.918 JLINK_HasError()
T42C8 3899:187.572 JLINK_IsHalted()
T42C8 3899:188.580 - 1.052ms returns FALSE
T42C8 3899:188.636 JLINK_HasError()
T42C8 3899:190.563 JLINK_IsHalted()
T42C8 3899:191.471 - 0.920ms returns FALSE
T42C8 3899:191.534 JLINK_HasError()
T42C8 3899:193.507 JLINK_IsHalted()
T42C8 3899:194.358 - 0.879ms returns FALSE
T42C8 3899:194.399 JLINK_HasError()
T42C8 3899:196.544 JLINK_IsHalted()
T42C8 3899:197.332 - 0.837ms returns FALSE
T42C8 3899:197.394 JLINK_HasError()
T42C8 3899:199.516 JLINK_IsHalted()
T42C8 3899:200.399 - 0.910ms returns FALSE
T42C8 3899:200.440 JLINK_HasError()
T42C8 3899:202.428 JLINK_IsHalted()
T42C8 3899:203.228 - 0.826ms returns FALSE
T42C8 3899:203.268 JLINK_HasError()
T42C8 3899:204.532 JLINK_IsHalted()
T42C8 3899:205.352 - 0.848ms returns FALSE
T42C8 3899:205.394 JLINK_HasError()
T42C8 3899:206.568 JLINK_IsHalted()
T42C8 3899:207.389 - 0.854ms returns FALSE
T42C8 3899:207.439 JLINK_HasError()
T42C8 3899:209.521 JLINK_IsHalted()
T42C8 3899:210.395 - 0.901ms returns FALSE
T42C8 3899:210.435 JLINK_HasError()
T42C8 3899:212.508 JLINK_IsHalted()
T42C8 3899:213.368 - 0.870ms returns FALSE
T42C8 3899:213.392 JLINK_HasError()
T42C8 3899:215.504 JLINK_IsHalted()
T42C8 3899:216.348 - 0.855ms returns FALSE
T42C8 3899:216.396 JLINK_HasError()
T42C8 3899:218.519 JLINK_IsHalted()
T42C8 3899:219.396 - 0.903ms returns FALSE
T42C8 3899:219.434 JLINK_HasError()
T42C8 3899:220.564 JLINK_IsHalted()
T42C8 3899:221.423 - 0.892ms returns FALSE
T42C8 3899:221.468 JLINK_HasError()
T42C8 3899:223.556 JLINK_IsHalted()
T42C8 3899:224.435 - 0.890ms returns FALSE
T42C8 3899:224.475 JLINK_HasError()
T42C8 3899:226.547 JLINK_IsHalted()
T42C8 3899:227.440 - 0.925ms returns FALSE
T42C8 3899:227.505 JLINK_HasError()
T42C8 3899:229.555 JLINK_IsHalted()
T42C8 3899:230.396 - 0.883ms returns FALSE
T42C8 3899:230.435 JLINK_HasError()
T42C8 3899:232.367 JLINK_IsHalted()
T42C8 3899:233.249 - 0.908ms returns FALSE
T42C8 3899:233.287 JLINK_HasError()
T42C8 3899:234.526 JLINK_IsHalted()
T42C8 3899:235.378 - 0.878ms returns FALSE
